Circuit: * E:\study\20-21_Sem1\ADVD\Analog Assignment\Draft1 - DC Gain.asc

Warning: Multiple definitions of model "cmosp" Type: BSIM3
Warning: Multiple definitions of model "cmosn" Type: BSIM3
Instance "m15": Length shorter than recommended for a level 1 MOSFET.
Instance "m15": Width narrower than recommended for a level 1 MOSFET.
Instance "m14": Length shorter than recommended for a level 1 MOSFET.
Instance "m14": Width narrower than recommended for a level 1 MOSFET.
Instance "m9": Length shorter than recommended for a level 1 MOSFET.
Instance "m9": Width narrower than recommended for a level 1 MOSFET.
Instance "m10": Length shorter than recommended for a level 1 MOSFET.
Instance "m10": Width narrower than recommended for a level 1 MOSFET.
Instance "m8": Length shorter than recommended for a level 1 MOSFET.
Instance "m8": Width narrower than recommended for a level 1 MOSFET.
Instance "m7": Length shorter than recommended for a level 1 MOSFET.
Instance "m7": Width narrower than recommended for a level 1 MOSFET.
Instance "m17": Length shorter than recommended for a level 1 MOSFET.
Instance "m17": Width narrower than recommended for a level 1 MOSFET.
Instance "m16": Length shorter than recommended for a level 1 MOSFET.
Instance "m16": Width narrower than recommended for a level 1 MOSFET.
Instance "m13": Length shorter than recommended for a level 1 MOSFET.
Instance "m13": Width narrower than recommended for a level 1 MOSFET.
Instance "m12": Length shorter than recommended for a level 1 MOSFET.
Instance "m12": Width narrower than recommended for a level 1 MOSFET.
Instance "m11": Length shorter than recommended for a level 1 MOSFET.
Instance "m11": Width narrower than recommended for a level 1 MOSFET.
Instance "m6": Length shorter than recommended for a level 1 MOSFET.
Instance "m6": Width narrower than recommended for a level 1 MOSFET.
Instance "m5": Length shorter than recommended for a level 1 MOSFET.
Instance "m5": Width narrower than recommended for a level 1 MOSFET.
Instance "m4": Length shorter than recommended for a level 1 MOSFET.
Instance "m4": Width narrower than recommended for a level 1 MOSFET.
Instance "m3": Length shorter than recommended for a level 1 MOSFET.
Instance "m3": Width narrower than recommended for a level 1 MOSFET.
Instance "m1": Length shorter than recommended for a level 1 MOSFET.
Instance "m1": Width narrower than recommended for a level 1 MOSFET.
Instance "m2": Length shorter than recommended for a level 1 MOSFET.
Instance "m2": Width narrower than recommended for a level 1 MOSFET.
Direct Newton iteration for .op point succeeded.
Semiconductor Device Operating Points:
                        --- MOSFET Transistors ---
Name:          m15         m14         m9          m10         m8
Model:        cmosp       cmosp       cmosp       cmosp       cmosp
Id:           2.50e-5     2.50e-5     5.00e-5     5.00e-5     2.50e-5
Vgs:          0.00e+0     0.00e+0     5.28e-7     5.28e-7     5.16e-3
Vds:          7.40e-1     7.40e-1     7.40e-1     7.40e-1     7.45e-1
Vbs:          7.40e-1     1.48e+0     7.40e-1     7.40e-1     1.48e+0
Vth:         -0.00e+0    -0.00e+0    -0.00e+0    -0.00e+0    -0.00e+0
Vdsat:       -7.40e-1    -7.40e-1    -7.40e-1    -7.40e-1    -7.40e-1
Gm:           6.76e-5     6.76e-5     1.35e-4     1.35e-4     6.76e-5
Gds:          0.00e+0     0.00e+0     0.00e+0     0.00e+0     0.00e+0
Gmb:          0.00e+0     0.00e+0     0.00e+0     0.00e+0     0.00e+0
Cbd:          0.00e+0     0.00e+0     0.00e+0     0.00e+0     0.00e+0
Cbs:          0.00e+0     0.00e+0     0.00e+0     0.00e+0     0.00e+0
Cgsov:        0.00e+0     0.00e+0     0.00e+0     0.00e+0     0.00e+0
Cgdov:        0.00e+0     0.00e+0     0.00e+0     0.00e+0     0.00e+0
Cgbov:        0.00e+0     0.00e+0     0.00e+0     0.00e+0     0.00e+0
Cgs:          0.00e+0     0.00e+0     0.00e+0     0.00e+0     0.00e+0
Cgd:          0.00e+0     0.00e+0     0.00e+0     0.00e+0     0.00e+0
Cgb:          0.00e+0     0.00e+0     0.00e+0     0.00e+0     0.00e+0

Name:          m7          m17         m16         m13         m12
Model:        cmosp       cmosn       cmosn       cmosn       cmosn
Id:           2.50e-5     2.50e-5     2.50e-5     2.50e-5     2.50e-5
Vgs:          5.16e-3     5.23e-1     5.23e-1     5.24e-1     5.23e-1
Vds:          7.45e-1     5.23e-1     5.23e-1     4.99e-1     5.22e-1
Vbs:          1.48e+0    -5.23e-1     0.00e+0    -5.22e-1     0.00e+0
Vth:         -0.00e+0     0.00e+0     0.00e+0     0.00e+0     0.00e+0
Vdsat:       -7.40e-1     5.23e-1     5.23e-1     5.24e-1     5.23e-1
Gm:           6.76e-5     9.56e-5     9.56e-5     9.12e-5     9.55e-5
Gds:          0.00e+0     0.00e+0     0.00e+0     4.54e-6     1.08e-7
Gmb:          0.00e+0     0.00e+0     0.00e+0     0.00e+0     0.00e+0
Cbd:          0.00e+0     0.00e+0     0.00e+0     0.00e+0     0.00e+0
Cbs:          0.00e+0     0.00e+0     0.00e+0     0.00e+0     0.00e+0
Cgsov:        0.00e+0     0.00e+0     0.00e+0     0.00e+0     0.00e+0
Cgdov:        0.00e+0     0.00e+0     0.00e+0     0.00e+0     0.00e+0
Cgbov:        0.00e+0     0.00e+0     0.00e+0     0.00e+0     0.00e+0
Cgs:          0.00e+0     0.00e+0     0.00e+0     0.00e+0     0.00e+0
Cgd:          0.00e+0     0.00e+0     0.00e+0     0.00e+0     0.00e+0
Cgb:          0.00e+0     0.00e+0     0.00e+0     0.00e+0     0.00e+0

Name:          m11         m6          m5          m4          m3
Model:        cmosn       cmosn       cmosn       cmosn       cmosn
Id:           5.00e-5     2.50e-5     2.50e-5     2.50e-5     2.50e-5
Vgs:          5.23e-1     5.24e-1     5.24e-1     5.23e-1     5.23e-1
Vds:          5.23e-1     4.94e-1     4.94e-1     5.22e-1     5.22e-1
Vbs:          0.00e+0    -5.22e-1    -5.22e-1     0.00e+0     0.00e+0
Vth:          0.00e+0     0.00e+0     0.00e+0     0.00e+0     0.00e+0
Vdsat:        5.23e-1     5.24e-1     5.24e-1     5.23e-1     5.23e-1
Gm:           1.91e-4     9.03e-5     9.03e-5     9.55e-5     9.55e-5
Gds:          0.00e+0     5.49e-6     5.49e-6     1.57e-7     1.57e-7
Gmb:          0.00e+0     0.00e+0     0.00e+0     0.00e+0     0.00e+0
Cbd:          0.00e+0     0.00e+0     0.00e+0     0.00e+0     0.00e+0
Cbs:          0.00e+0     0.00e+0     0.00e+0     0.00e+0     0.00e+0
Cgsov:        0.00e+0     0.00e+0     0.00e+0     0.00e+0     0.00e+0
Cgdov:        0.00e+0     0.00e+0     0.00e+0     0.00e+0     0.00e+0
Cgbov:        0.00e+0     0.00e+0     0.00e+0     0.00e+0     0.00e+0
Cgs:          0.00e+0     0.00e+0     0.00e+0     0.00e+0     0.00e+0
Cgd:          0.00e+0     0.00e+0     0.00e+0     0.00e+0     0.00e+0
Cgb:          0.00e+0     0.00e+0     0.00e+0     0.00e+0     0.00e+0

Name:          m1          m2
Model:        cmosn       cmosn
Id:           2.50e-5     2.50e-5
Vgs:          5.23e-1     5.23e-1
Vds:          1.24e+0     1.24e+0
Vbs:         -5.23e-1    -5.23e-1
Vth:          0.00e+0     0.00e+0
Vdsat:        5.23e-1     5.23e-1
Gm:           9.56e-5     9.56e-5
Gds:          0.00e+0     0.00e+0
Gmb:          0.00e+0     0.00e+0
Cbd:          0.00e+0     0.00e+0
Cbs:          0.00e+0     0.00e+0
Cgsov:        0.00e+0     0.00e+0
Cgdov:        0.00e+0     0.00e+0
Cgbov:        0.00e+0     0.00e+0
Cgs:          0.00e+0     0.00e+0
Cgd:          0.00e+0     0.00e+0
Cgb:          0.00e+0     0.00e+0



Date: Sun Mar 21 14:23:07 2021
Total elapsed time: 0.077 seconds.

tnom = 27
temp = 27
method = trap
totiter = 22
traniter = 0
tranpoints = 0
accept = 0
rejected = 0
matrix size = 18
fillins = 32
solver = Normal
Matrix Compiler1:     210 opcodes
Matrix Compiler2: 2.50 KB object code size
