Circuit: * E:\study\ADVD\Analog Assignment\Draft1 - SS.asc

Warning: Multiple definitions of model "cmosp" Type: BSIM3
Warning: Multiple definitions of model "cmosn" Type: BSIM3
Instance "m15": Length shorter than recommended for a level 1 MOSFET.
Instance "m15": Width narrower than recommended for a level 1 MOSFET.
Instance "m14": Length shorter than recommended for a level 1 MOSFET.
Instance "m14": Width narrower than recommended for a level 1 MOSFET.
Instance "m9": Length shorter than recommended for a level 1 MOSFET.
Instance "m9": Width narrower than recommended for a level 1 MOSFET.
Instance "m10": Length shorter than recommended for a level 1 MOSFET.
Instance "m10": Width narrower than recommended for a level 1 MOSFET.
Instance "m8": Length shorter than recommended for a level 1 MOSFET.
Instance "m8": Width narrower than recommended for a level 1 MOSFET.
Instance "m7": Length shorter than recommended for a level 1 MOSFET.
Instance "m7": Width narrower than recommended for a level 1 MOSFET.
Instance "m17": Length shorter than recommended for a level 1 MOSFET.
Instance "m17": Width narrower than recommended for a level 1 MOSFET.
Instance "m16": Length shorter than recommended for a level 1 MOSFET.
Instance "m16": Width narrower than recommended for a level 1 MOSFET.
Instance "m13": Length shorter than recommended for a level 1 MOSFET.
Instance "m13": Width narrower than recommended for a level 1 MOSFET.
Instance "m12": Length shorter than recommended for a level 1 MOSFET.
Instance "m12": Width narrower than recommended for a level 1 MOSFET.
Instance "m11": Length shorter than recommended for a level 1 MOSFET.
Instance "m11": Width narrower than recommended for a level 1 MOSFET.
Instance "m6": Length shorter than recommended for a level 1 MOSFET.
Instance "m6": Width narrower than recommended for a level 1 MOSFET.
Instance "m5": Length shorter than recommended for a level 1 MOSFET.
Instance "m5": Width narrower than recommended for a level 1 MOSFET.
Instance "m4": Length shorter than recommended for a level 1 MOSFET.
Instance "m4": Width narrower than recommended for a level 1 MOSFET.
Instance "m3": Length shorter than recommended for a level 1 MOSFET.
Instance "m3": Width narrower than recommended for a level 1 MOSFET.
Instance "m1": Length shorter than recommended for a level 1 MOSFET.
Instance "m1": Width narrower than recommended for a level 1 MOSFET.
Instance "m2": Length shorter than recommended for a level 1 MOSFET.
Instance "m2": Width narrower than recommended for a level 1 MOSFET.
Direct Newton iteration for .op point succeeded.
Semiconductor Device Operating Points:
                        --- MOSFET Transistors ---
Name:          m15         m14         m9          m10         m8
Model:        cmosp       cmosp       cmosp       cmosp       cmosp
Id:           2.32e-5     2.32e-5     4.68e-5     4.68e-5     2.18e-5
Vgs:          0.00e+0     0.00e+0     3.22e-2     3.22e-2     1.09e-1
Vds:          7.50e-1     7.50e-1     7.83e-1     7.83e-1     8.28e-1
Vbs:          7.50e-1     1.50e+0     7.83e-1     7.83e-1     1.61e+0
Vth:          9.42e-2     9.42e-2     9.42e-2     9.42e-2     9.42e-2
Vdsat:       -8.45e-1    -8.45e-1    -8.45e-1    -8.45e-1    -8.13e-1
Gm:           4.95e-5     4.95e-5     1.03e-4     1.03e-4     5.36e-5
Gds:          6.21e-6     6.21e-6     8.18e-6     8.18e-6     0.00e+0
Gmb:          0.00e+0     0.00e+0     0.00e+0     0.00e+0     0.00e+0
Cbd:          0.00e+0     0.00e+0     0.00e+0     0.00e+0     0.00e+0
Cbs:          0.00e+0     0.00e+0     0.00e+0     0.00e+0     0.00e+0
Cgsov:        0.00e+0     0.00e+0     0.00e+0     0.00e+0     0.00e+0
Cgdov:        0.00e+0     0.00e+0     0.00e+0     0.00e+0     0.00e+0
Cgbov:        0.00e+0     0.00e+0     0.00e+0     0.00e+0     0.00e+0
Cgs:          0.00e+0     0.00e+0     0.00e+0     0.00e+0     0.00e+0
Cgd:          0.00e+0     0.00e+0     0.00e+0     0.00e+0     0.00e+0
Cgb:          0.00e+0     0.00e+0     0.00e+0     0.00e+0     0.00e+0

Name:          m7          m17         m16         m13         m12
Model:        cmosp       cmosn       cmosn       cmosn       cmosn
Id:           2.18e-5     2.50e-5     2.50e-5     2.32e-5     2.32e-5
Vgs:          1.09e-1     5.47e-1     5.47e-1     6.53e-1     5.47e-1
Vds:          8.28e-1     5.47e-1     5.47e-1     3.08e-1     4.41e-1
Vbs:          1.61e+0    -5.47e-1     0.00e+0    -4.41e-1     0.00e+0
Vth:          9.42e-2    -7.31e-2    -7.31e-2    -7.31e-2    -7.31e-2
Vdsat:       -8.13e-1     6.20e-1     6.20e-1     7.26e-1     6.20e-1
Gm:           5.36e-5     7.21e-5     7.21e-5     4.06e-5     5.82e-5
Gds:          0.00e+0     9.65e-6     9.65e-6     5.51e-5     2.36e-5
Gmb:          0.00e+0     0.00e+0     0.00e+0     0.00e+0     0.00e+0
Cbd:          0.00e+0     0.00e+0     0.00e+0     0.00e+0     0.00e+0
Cbs:          0.00e+0     0.00e+0     0.00e+0     0.00e+0     0.00e+0
Cgsov:        0.00e+0     0.00e+0     0.00e+0     0.00e+0     0.00e+0
Cgdov:        0.00e+0     0.00e+0     0.00e+0     0.00e+0     0.00e+0
Cgbov:        0.00e+0     0.00e+0     0.00e+0     0.00e+0     0.00e+0
Cgs:          0.00e+0     0.00e+0     0.00e+0     0.00e+0     0.00e+0
Cgd:          0.00e+0     0.00e+0     0.00e+0     0.00e+0     0.00e+0
Cgb:          0.00e+0     0.00e+0     0.00e+0     0.00e+0     0.00e+0

Name:          m11         m6          m5          m4          m3
Model:        cmosn       cmosn       cmosn       cmosn       cmosn
Id:           5.01e-5     2.18e-5     2.18e-5     2.18e-5     2.18e-5
Vgs:          5.47e-1     7.07e-1     7.07e-1     5.47e-1     5.47e-1
Vds:          5.51e-1     2.53e-1     2.53e-1     3.87e-1     3.87e-1
Vbs:          0.00e+0    -3.87e-1    -3.87e-1     0.00e+0     0.00e+0
Vth:         -7.31e-2    -7.31e-2    -7.31e-2    -7.31e-2    -7.31e-2
Vdsat:        6.20e-1     7.80e-1     7.80e-1     6.20e-1     6.20e-1
Gm:           1.45e-4     3.33e-5     3.33e-5     5.11e-5     5.11e-5
Gds:          1.83e-5     6.96e-5     6.96e-5     3.07e-5     3.07e-5
Gmb:          0.00e+0     0.00e+0     0.00e+0     0.00e+0     0.00e+0
Cbd:          0.00e+0     0.00e+0     0.00e+0     0.00e+0     0.00e+0
Cbs:          0.00e+0     0.00e+0     0.00e+0     0.00e+0     0.00e+0
Cgsov:        0.00e+0     0.00e+0     0.00e+0     0.00e+0     0.00e+0
Cgdov:        0.00e+0     0.00e+0     0.00e+0     0.00e+0     0.00e+0
Cgbov:        0.00e+0     0.00e+0     0.00e+0     0.00e+0     0.00e+0
Cgs:          0.00e+0     0.00e+0     0.00e+0     0.00e+0     0.00e+0
Cgd:          0.00e+0     0.00e+0     0.00e+0     0.00e+0     0.00e+0
Cgb:          0.00e+0     0.00e+0     0.00e+0     0.00e+0     0.00e+0

Name:          m1          m2
Model:        cmosn       cmosn
Id:           2.50e-5     2.50e-5
Vgs:          5.43e-1     5.43e-1
Vds:          9.17e-1     9.17e-1
Vbs:         -5.51e-1    -5.51e-1
Vth:         -7.31e-2    -7.31e-2
Vdsat:        6.16e-1     6.16e-1
Gm:           8.13e-5     8.13e-5
Gds:          0.00e+0     0.00e+0
Gmb:          0.00e+0     0.00e+0
Cbd:          0.00e+0     0.00e+0
Cbs:          0.00e+0     0.00e+0
Cgsov:        0.00e+0     0.00e+0
Cgdov:        0.00e+0     0.00e+0
Cgbov:        0.00e+0     0.00e+0
Cgs:          0.00e+0     0.00e+0
Cgd:          0.00e+0     0.00e+0
Cgb:          0.00e+0     0.00e+0



Date: Sat Oct 31 22:21:29 2020
Total elapsed time: 0.066 seconds.

tnom = 27
temp = 100
method = trap
totiter = 32
traniter = 0
tranpoints = 0
accept = 0
rejected = 0
matrix size = 18
fillins = 32
solver = Normal
Matrix Compiler1:     210 opcodes
Matrix Compiler2:     181 opcodes
